T8984 2836:112 SEGGER J-Link V4.84c Log File (0004ms, 3006ms total)
T8984 2836:112 DLL Compiled: Apr 16 2014 18:53:07 (0004ms, 3006ms total)
T8984 2836:112 Logging started @ 2015-01-02 02:58 (0004ms, 3006ms total)
T8984 2836:149 JLINK_ExecCommand("Device = AT91SAM3X8E", ...)Device "ATSAM3X8E" selected (512 KB flash, 64 KB RAM).  returns 0x00 (0000ms, 3006ms total)
T8984 2836:550 JLINK_ExecCommand("ProjectFile = C:\Users\Keenan\Documents\GitHub\CDH-OBC\Code\jlink.config", ...)  returns 0x00 (0001ms, 3007ms total)
T8984 2836:576 JLINK_ExecCommand("Device = AT91SAM3X8E", ...)Device "ATSAM3X8E" selected (512 KB flash, 64 KB RAM).  returns 0x00 (0001ms, 3008ms total)
T8984 2836:577 JLINK_TIF_Select(JLINKARM_TIF_JTAG)  returns 0x00 (0001ms, 3009ms total)
T8984 2836:578 JLINK_GetIdData(...) >0x2F8 JTAG>TotalIRLen = 4, IRPrint = 0x01 >0x30 JTAG> >0x210 JTAG> >0x70 JTAG> >0x40 JTAG> >0x40 JTAG> >0x40 JTAG> >0x48 JTAG> >0x78 JTAG> >0x40 JTAG> >0x30 JTAG> >0x40 JTAG> >0x40 JTAG> >0x30 JTAG> >0x40 JTAG> >0x48 JTAG>Found Cortex-M3 r2p0, Little endian. -- CPU_WriteMem(4 bytes @ 0xE0002000) -- CPU_ReadMem(4 bytes @ 0xE000EDF0) -- CPU_ReadMem(4 bytes @ 0xE0002000)FPUnit: 6 code (BP) slots and 2 literal slots -- CPU_ReadMem(4 bytes @ 0xE000EDFC)
 -- CPU_ReadMem(4 bytes @ 0xE0001000) -- CPU_WriteMem(4 bytes @ 0xE0001000) -- CPU_ReadMem(4 bytes @ 0xE00FF010)TPIU fitted. -- CPU_ReadMem(4 bytes @ 0xE00FF014) -- CPU_ReadMem(4 bytes @ 0xE00FF018) ScanLen=4 NumDevices=1 aId[0]=0x4BA00477 aIrRead[0]=0 aScanLen[0]=0 aScanRead[0]=0 (0013ms, 3022ms total)
T8984 2836:591 JLINK_ConfigJTAG(IRPre = 0, DRPre = 0) (0000ms, 3022ms total)
T8984 2836:591 JLINK_SetSpeed(4000) (0000ms, 3022ms total)
T8984 2836:591 JLINK_ResetPullsRESET(OFF) (0000ms, 3022ms total)
T8984 2836:591 JLINK_Connect() >0x2F8 JTAG>TotalIRLen = 4, IRPrint = 0x01 >0x30 JTAG> >0x210 JTAG> >0x70 JTAG> >0x40 JTAG> >0x40 JTAG> >0x40 JTAG> >0x48 JTAG> >0x78 JTAG> >0x40 JTAG> >0x30 JTAG> >0x40 JTAG> >0x40 JTAG> >0x30 JTAG> >0x40 JTAG> >0x48 JTAG>Found Cortex-M3 r2p0, Little endian. -- CPU_WriteMem(4 bytes @ 0xE0002000) -- CPU_ReadMem(4 bytes @ 0xE000EDF0) -- CPU_ReadMem(4 bytes @ 0xE0002000)FPUnit: 6 code (BP) slots and 2 literal slots -- CPU_ReadMem(4 bytes @ 0xE000EDFC)
 -- CPU_ReadMem(4 bytes @ 0xE0001000) -- CPU_WriteMem(4 bytes @ 0xE0001000) -- CPU_ReadMem(4 bytes @ 0xE00FF010)TPIU fitted. -- CPU_ReadMem(4 bytes @ 0xE00FF014) -- CPU_ReadMem(4 bytes @ 0xE00FF018)  returns 0x00 (0007ms, 3029ms total)
T8984 2836:598 JLINK_GetDebugInfo(0x100) -- Value=0xE00FF003  returns 0x00 (0000ms, 3029ms total)
T8984 2836:598 JLINK_ReadMemU8(0xE00FFFF0, 0x0001 Items, ...) -- CPU is running -- CPU_ReadMem(1 bytes @ 0xE00FFFF0) -- Data:  0D  returns 0x01 (0001ms, 3030ms total)
T8984 2836:599 JLINK_ReadMemU8(0xE00FFFF4, 0x0001 Items, ...) -- CPU is running -- CPU_ReadMem(1 bytes @ 0xE00FFFF4) -- Data:  10  returns 0x01 (0000ms, 3030ms total)
T8984 2836:599 JLINK_ReadMemU8(0xE00FFFF8, 0x0001 Items, ...) -- CPU is running -- CPU_ReadMem(1 bytes @ 0xE00FFFF8) -- Data:  05  returns 0x01 (0000ms, 3030ms total)
T8984 2836:599 JLINK_ReadMemU8(0xE00FFFFC, 0x0001 Items, ...) -- CPU is running -- CPU_ReadMem(1 bytes @ 0xE00FFFFC) -- Data:  B1  returns 0x01 (0001ms, 3031ms total)
T8984 2836:600 JLINK_ReadMemU8(0xE00FFFD0, 0x0001 Items, ...) -- CPU is running -- CPU_ReadMem(1 bytes @ 0xE00FFFD0) -- Data:  00  returns 0x01 (0000ms, 3031ms total)
T8984 2836:600 JLINK_ReadMemU8(0xE00FFFD4, 0x0001 Items, ...) -- CPU is running -- CPU_ReadMem(1 bytes @ 0xE00FFFD4) -- Data:  00  returns 0x01 (0001ms, 3032ms total)
T8984 2836:601 JLINK_ReadMemU8(0xE00FFFD8, 0x0001 Items, ...) -- CPU is running -- CPU_ReadMem(1 bytes @ 0xE00FFFD8) -- Data:  00  returns 0x01 (0000ms, 3032ms total)
T8984 2836:601 JLINK_ReadMemU8(0xE00FFFDC, 0x0001 Items, ...) -- CPU is running -- CPU_ReadMem(1 bytes @ 0xE00FFFDC) -- Data:  00  returns 0x01 (0000ms, 3032ms total)
T8984 2836:601 JLINK_ReadMemU8(0xE00FFFE0, 0x0001 Items, ...) -- CPU is running -- CPU_ReadMem(1 bytes @ 0xE00FFFE0) -- Data:  00  returns 0x01 (0001ms, 3033ms total)
T8984 2836:602 JLINK_ReadMemU8(0xE00FFFE4, 0x0001 Items, ...) -- CPU is running -- CPU_ReadMem(1 bytes @ 0xE00FFFE4) -- Data:  00  returns 0x01 (0000ms, 3033ms total)
T8984 2836:602 JLINK_ReadMemU8(0xE00FFFE8, 0x0001 Items, ...) -- CPU is running -- CPU_ReadMem(1 bytes @ 0xE00FFFE8) -- Data:  00  returns 0x01 (0001ms, 3034ms total)
T8984 2836:603 JLINK_ReadMemU8(0xE00FFFEC, 0x0001 Items, ...) -- CPU is running -- CPU_ReadMem(1 bytes @ 0xE00FFFEC) -- Data:  00  returns 0x01 (0000ms, 3034ms total)
T8984 2836:603 JLINK_ReadMemU32(0xE00FF000, 0x0001 Items, ...) -- CPU is running -- CPU_ReadMem(4 bytes @ 0xE00FF000) -- Data:  03 F0 F0 FF  returns 0x01 (0000ms, 3034ms total)
T8984 2836:603 JLINK_ReadMemU8(0xE000EFF0, 0x0001 Items, ...) -- CPU is running -- CPU_ReadMem(1 bytes @ 0xE000EFF0) -- Data:  0D  returns 0x01 (0001ms, 3035ms total)
T8984 2836:604 JLINK_ReadMemU8(0xE000EFF4, 0x0001 Items, ...) -- CPU is running -- CPU_ReadMem(1 bytes @ 0xE000EFF4) -- Data:  E0  returns 0x01 (0000ms, 3035ms total)
T8984 2836:604 JLINK_ReadMemU8(0xE000EFF8, 0x0001 Items, ...) -- CPU is running -- CPU_ReadMem(1 bytes @ 0xE000EFF8) -- Data:  05  returns 0x01 (0001ms, 3036ms total)
T8984 2836:605 JLINK_ReadMemU8(0xE000EFFC, 0x0001 Items, ...) -- CPU is running -- CPU_ReadMem(1 bytes @ 0xE000EFFC) -- Data:  B1  returns 0x01 (0000ms, 3036ms total)
T8984 2836:605 JLINK_ReadMemU8(0xE000EFD0, 0x0001 Items, ...) -- CPU is running -- CPU_ReadMem(1 bytes @ 0xE000EFD0) -- Data:  04  returns 0x01 (0000ms, 3036ms total)
T8984 2836:605 JLINK_ReadMemU8(0xE000EFD4, 0x0001 Items, ...) -- CPU is running -- CPU_ReadMem(1 bytes @ 0xE000EFD4) -- Data:  00  returns 0x01 (0001ms, 3037ms total)
T8984 2836:606 JLINK_ReadMemU8(0xE000EFD8, 0x0001 Items, ...) -- CPU is running -- CPU_ReadMem(1 bytes @ 0xE000EFD8) -- Data:  00  returns 0x01 (0000ms, 3037ms total)
T8984 2836:606 JLINK_ReadMemU8(0xE000EFDC, 0x0001 Items, ...) -- CPU is running -- CPU_ReadMem(1 bytes @ 0xE000EFDC) -- Data:  00  returns 0x01 (0000ms, 3037ms total)
T8984 2836:607 JLINK_ReadMemU8(0xE000EFE0, 0x0001 Items, ...) -- CPU is running -- CPU_ReadMem(1 bytes @ 0xE000EFE0) -- Data:  00  returns 0x01 (0000ms, 3038ms total)
T8984 2836:607 JLINK_ReadMemU8(0xE000EFE4, 0x0001 Items, ...) -- CPU is running -- CPU_ReadMem(1 bytes @ 0xE000EFE4) -- Data:  B0  returns 0x01 (0000ms, 3038ms total)
T8984 2836:607 JLINK_ReadMemU8(0xE000EFE8, 0x0001 Items, ...) -- CPU is running -- CPU_ReadMem(1 bytes @ 0xE000EFE8) -- Data:  2B  returns 0x01 (0001ms, 3039ms total)
T8984 2836:608 JLINK_ReadMemU8(0xE000EFEC, 0x0001 Items, ...) -- CPU is running -- CPU_ReadMem(1 bytes @ 0xE000EFEC) -- Data:  00  returns 0x01 (0000ms, 3039ms total)
T8984 2836:608 JLINK_ReadMemU32(0xE00FF004, 0x0001 Items, ...) -- CPU is running -- CPU_ReadMem(4 bytes @ 0xE00FF004) -- Data:  03 20 F0 FF  returns 0x01 (0000ms, 3039ms total)
T8984 2836:608 JLINK_ReadMemU8(0xE0001FF0, 0x0001 Items, ...) -- CPU is running -- CPU_ReadMem(1 bytes @ 0xE0001FF0) -- Data:  0D  returns 0x01 (0001ms, 3040ms total)
T8984 2836:609 JLINK_ReadMemU8(0xE0001FF4, 0x0001 Items, ...) -- CPU is running -- CPU_ReadMem(1 bytes @ 0xE0001FF4) -- Data:  E0  returns 0x01 (0000ms, 3040ms total)
T8984 2836:609 JLINK_ReadMemU8(0xE0001FF8, 0x0001 Items, ...) -- CPU is running -- CPU_ReadMem(1 bytes @ 0xE0001FF8) -- Data:  05  returns 0x01 (0000ms, 3040ms total)
T8984 2836:609 JLINK_ReadMemU8(0xE0001FFC, 0x0001 Items, ...) -- CPU is running -- CPU_ReadMem(1 bytes @ 0xE0001FFC) -- Data:  B1  returns 0x01 (0001ms, 3041ms total)
T8984 2836:610 JLINK_ReadMemU8(0xE0001FD0, 0x0001 Items, ...) -- CPU is running -- CPU_ReadMem(1 bytes @ 0xE0001FD0) -- Data:  04  returns 0x01 (0000ms, 3041ms total)
T8984 2836:610 JLINK_ReadMemU8(0xE0001FD4, 0x0001 Items, ...) -- CPU is running -- CPU_ReadMem(1 bytes @ 0xE0001FD4) -- Data:  00  returns 0x01 (0000ms, 3041ms total)
T8984 2836:610 JLINK_ReadMemU8(0xE0001FD8, 0x0001 Items, ...) -- CPU is running -- CPU_ReadMem(1 bytes @ 0xE0001FD8) -- Data:  00  returns 0x01 (0001ms, 3042ms total)
T8984 2836:611 JLINK_ReadMemU8(0xE0001FDC, 0x0001 Items, ...) -- CPU is running -- CPU_ReadMem(1 bytes @ 0xE0001FDC) -- Data:  00  returns 0x01 (0000ms, 3042ms total)
T8984 2836:611 JLINK_ReadMemU8(0xE0001FE0, 0x0001 Items, ...) -- CPU is running -- CPU_ReadMem(1 bytes @ 0xE0001FE0) -- Data:  02  returns 0x01 (0000ms, 3042ms total)
T8984 2836:611 JLINK_ReadMemU8(0xE0001FE4, 0x0001 Items, ...) -- CPU is running -- CPU_ReadMem(1 bytes @ 0xE0001FE4) -- Data:  B0  returns 0x01 (0001ms, 3043ms total)
T8984 2836:612 JLINK_ReadMemU8(0xE0001FE8, 0x0001 Items, ...) -- CPU is running -- CPU_ReadMem(1 bytes @ 0xE0001FE8) -- Data:  2B  returns 0x01 (0000ms, 3043ms total)
T8984 2836:612 JLINK_ReadMemU8(0xE0001FEC, 0x0001 Items, ...) -- CPU is running -- CPU_ReadMem(1 bytes @ 0xE0001FEC) -- Data:  00  returns 0x01 (0000ms, 3043ms total)
T8984 2836:612 JLINK_ReadMemU32(0xE00FF008, 0x0001 Items, ...) -- CPU is running -- CPU_ReadMem(4 bytes @ 0xE00FF008) -- Data:  03 30 F0 FF  returns 0x01 (0001ms, 3044ms total)
T8984 2836:613 JLINK_ReadMemU8(0xE0002FF0, 0x0001 Items, ...) -- CPU is running -- CPU_ReadMem(1 bytes @ 0xE0002FF0) -- Data:  0D  returns 0x01 (0000ms, 3044ms total)
T8984 2836:613 JLINK_ReadMemU8(0xE0002FF4, 0x0001 Items, ...) -- CPU is running -- CPU_ReadMem(1 bytes @ 0xE0002FF4) -- Data:  E0  returns 0x01 (0001ms, 3045ms total)
T8984 2836:614 JLINK_ReadMemU8(0xE0002FF8, 0x0001 Items, ...) -- CPU is running -- CPU_ReadMem(1 bytes @ 0xE0002FF8) -- Data:  05  returns 0x01 (0000ms, 3045ms total)
T8984 2836:614 JLINK_ReadMemU8(0xE0002FFC, 0x0001 Items, ...) -- CPU is running -- CPU_ReadMem(1 bytes @ 0xE0002FFC) -- Data:  B1  returns 0x01 (0000ms, 3045ms total)
T8984 2836:614 JLINK_ReadMemU8(0xE0002FD0, 0x0001 Items, ...) -- CPU is running -- CPU_ReadMem(1 bytes @ 0xE0002FD0) -- Data:  04  returns 0x01 (0001ms, 3046ms total)
T8984 2836:615 JLINK_ReadMemU8(0xE0002FD4, 0x0001 Items, ...) -- CPU is running -- CPU_ReadMem(1 bytes @ 0xE0002FD4) -- Data:  00  returns 0x01 (0000ms, 3046ms total)
T8984 2836:615 JLINK_ReadMemU8(0xE0002FD8, 0x0001 Items, ...) -- CPU is running -- CPU_ReadMem(1 bytes @ 0xE0002FD8) -- Data:  00  returns 0x01 (0000ms, 3046ms total)
T8984 2836:615 JLINK_ReadMemU8(0xE0002FDC, 0x0001 Items, ...) -- CPU is running -- CPU_ReadMem(1 bytes @ 0xE0002FDC) -- Data:  00  returns 0x01 (0001ms, 3047ms total)
T8984 2836:616 JLINK_ReadMemU8(0xE0002FE0, 0x0001 Items, ...) -- CPU is running -- CPU_ReadMem(1 bytes @ 0xE0002FE0) -- Data:  03  returns 0x01 (0000ms, 3047ms total)
T8984 2836:616 JLINK_ReadMemU8(0xE0002FE4, 0x0001 Items, ...) -- CPU is running -- CPU_ReadMem(1 bytes @ 0xE0002FE4) -- Data:  B0  returns 0x01 (0000ms, 3047ms total)
T8984 2836:616 JLINK_ReadMemU8(0xE0002FE8, 0x0001 Items, ...) -- CPU is running -- CPU_ReadMem(1 bytes @ 0xE0002FE8) -- Data:  2B  returns 0x01 (0001ms, 3048ms total)
T8984 2836:617 JLINK_ReadMemU8(0xE0002FEC, 0x0001 Items, ...) -- CPU is running -- CPU_ReadMem(1 bytes @ 0xE0002FEC) -- Data:  00  returns 0x01 (0000ms, 3048ms total)
T8984 2836:617 JLINK_ReadMemU32(0xE00FF00C, 0x0001 Items, ...) -- CPU is running -- CPU_ReadMem(4 bytes @ 0xE00FF00C) -- Data:  03 10 F0 FF  returns 0x01 (0000ms, 3048ms total)
T8984 2836:617 JLINK_ReadMemU8(0xE0000FF0, 0x0001 Items, ...) -- CPU is running -- CPU_ReadMem(1 bytes @ 0xE0000FF0) -- Data:  0D  returns 0x01 (0001ms, 3049ms total)
T8984 2836:618 JLINK_ReadMemU8(0xE0000FF4, 0x0001 Items, ...) -- CPU is running -- CPU_ReadMem(1 bytes @ 0xE0000FF4) -- Data:  E0  returns 0x01 (0000ms, 3049ms total)
T8984 2836:618 JLINK_ReadMemU8(0xE0000FF8, 0x0001 Items, ...) -- CPU is running -- CPU_ReadMem(1 bytes @ 0xE0000FF8) -- Data:  05  returns 0x01 (0000ms, 3049ms total)
T8984 2836:618 JLINK_ReadMemU8(0xE0000FFC, 0x0001 Items, ...) -- CPU is running -- CPU_ReadMem(1 bytes @ 0xE0000FFC) -- Data:  B1  returns 0x01 (0001ms, 3050ms total)
T8984 2836:619 JLINK_ReadMemU8(0xE0000FD0, 0x0001 Items, ...) -- CPU is running -- CPU_ReadMem(1 bytes @ 0xE0000FD0) -- Data:  04  returns 0x01 (0000ms, 3050ms total)
T8984 2836:619 JLINK_ReadMemU8(0xE0000FD4, 0x0001 Items, ...) -- CPU is running -- CPU_ReadMem(1 bytes @ 0xE0000FD4) -- Data:  00  returns 0x01 (0000ms, 3050ms total)
T8984 2836:619 JLINK_ReadMemU8(0xE0000FD8, 0x0001 Items, ...) -- CPU is running -- CPU_ReadMem(1 bytes @ 0xE0000FD8) -- Data:  00  returns 0x01 (0001ms, 3051ms total)
T8984 2836:620 JLINK_ReadMemU8(0xE0000FDC, 0x0001 Items, ...) -- CPU is running -- CPU_ReadMem(1 bytes @ 0xE0000FDC) -- Data:  00  returns 0x01 (0000ms, 3051ms total)
T8984 2836:620 JLINK_ReadMemU8(0xE0000FE0, 0x0001 Items, ...) -- CPU is running -- CPU_ReadMem(1 bytes @ 0xE0000FE0) -- Data:  01  returns 0x01 (0001ms, 3052ms total)
T8984 2836:621 JLINK_ReadMemU8(0xE0000FE4, 0x0001 Items, ...) -- CPU is running -- CPU_ReadMem(1 bytes @ 0xE0000FE4) -- Data:  B0  returns 0x01 (0000ms, 3052ms total)
T8984 2836:621 JLINK_ReadMemU8(0xE0000FE8, 0x0001 Items, ...) -- CPU is running -- CPU_ReadMem(1 bytes @ 0xE0000FE8) -- Data:  2B  returns 0x01 (0000ms, 3052ms total)
T8984 2836:621 JLINK_ReadMemU8(0xE0000FEC, 0x0001 Items, ...) -- CPU is running -- CPU_ReadMem(1 bytes @ 0xE0000FEC) -- Data:  00  returns 0x01 (0001ms, 3053ms total)
T8984 2836:622 JLINK_ReadMemU32(0xE00FF010, 0x0001 Items, ...) -- CPU is running -- CPU_ReadMem(4 bytes @ 0xE00FF010) -- Data:  03 10 F4 FF  returns 0x01 (0000ms, 3053ms total)
T8984 2836:622 JLINK_ReadMemU8(0xE0040FF0, 0x0001 Items, ...) -- CPU is running -- CPU_ReadMem(1 bytes @ 0xE0040FF0) -- Data:  0D  returns 0x01 (0000ms, 3053ms total)
T8984 2836:622 JLINK_ReadMemU8(0xE0040FF4, 0x0001 Items, ...) -- CPU is running -- CPU_ReadMem(1 bytes @ 0xE0040FF4) -- Data:  90  returns 0x01 (0001ms, 3054ms total)
T8984 2836:623 JLINK_ReadMemU8(0xE0040FF8, 0x0001 Items, ...) -- CPU is running -- CPU_ReadMem(1 bytes @ 0xE0040FF8) -- Data:  05  returns 0x01 (0000ms, 3054ms total)
T8984 2836:623 JLINK_ReadMemU8(0xE0040FFC, 0x0001 Items, ...) -- CPU is running -- CPU_ReadMem(1 bytes @ 0xE0040FFC) -- Data:  B1  returns 0x01 (0001ms, 3055ms total)
T8984 2836:624 JLINK_ReadMemU8(0xE0040FD0, 0x0001 Items, ...) -- CPU is running -- CPU_ReadMem(1 bytes @ 0xE0040FD0) -- Data:  04  returns 0x01 (0000ms, 3055ms total)
T8984 2836:624 JLINK_ReadMemU8(0xE0040FD4, 0x0001 Items, ...) -- CPU is running -- CPU_ReadMem(1 bytes @ 0xE0040FD4) -- Data:  00  returns 0x01 (0001ms, 3056ms total)
T8984 2836:625 JLINK_ReadMemU8(0xE0040FD8, 0x0001 Items, ...) -- CPU is running -- CPU_ReadMem(1 bytes @ 0xE0040FD8) -- Data:  00  returns 0x01 (0000ms, 3056ms total)
T8984 2836:625 JLINK_ReadMemU8(0xE0040FDC, 0x0001 Items, ...) -- CPU is running -- CPU_ReadMem(1 bytes @ 0xE0040FDC) -- Data:  00  returns 0x01 (0000ms, 3056ms total)
T8984 2836:625 JLINK_ReadMemU8(0xE0040FE0, 0x0001 Items, ...) -- CPU is running -- CPU_ReadMem(1 bytes @ 0xE0040FE0) -- Data:  23  returns 0x01 (0001ms, 3057ms total)
T8984 2836:626 JLINK_ReadMemU8(0xE0040FE4, 0x0001 Items, ...) -- CPU is running -- CPU_ReadMem(1 bytes @ 0xE0040FE4) -- Data:  B9  returns 0x01 (0000ms, 3057ms total)
T8984 2836:626 JLINK_ReadMemU8(0xE0040FE8, 0x0001 Items, ...) -- CPU is running -- CPU_ReadMem(1 bytes @ 0xE0040FE8) -- Data:  2B  returns 0x01 (0001ms, 3058ms total)
T8984 2836:627 JLINK_ReadMemU8(0xE0040FEC, 0x0001 Items, ...) -- CPU is running -- CPU_ReadMem(1 bytes @ 0xE0040FEC) -- Data:  00  returns 0x01 (0000ms, 3058ms total)
T8984 2836:627 JLINK_ReadMemU32(0xE00FF014, 0x0001 Items, ...) -- CPU is running -- CPU_ReadMem(4 bytes @ 0xE00FF014) -- Data:  02 20 F4 FF  returns 0x01 (0000ms, 3058ms total)
T8984 2836:627 JLINK_ReadMemU32(0xE00FF018, 0x0001 Items, ...) -- CPU is running -- CPU_ReadMem(4 bytes @ 0xE00FF018) -- Data:  00 00 00 00  returns 0x01 (0001ms, 3059ms total)
T8984 2836:628 JLINK_ReadMem (0xE0001000, 0x0004 Bytes, ...) -- CPU is running -- CPU_ReadMem(4 bytes @ 0xE0001000) -- Data:  01 00 00 40  returns 0x00 (0000ms, 3059ms total)
T8984 2836:628 JLINK_ReadMem (0xE0001000, 0x0004 Bytes, ...) -- CPU is running -- CPU_ReadMem(4 bytes @ 0xE0001000) -- Data:  01 00 00 40  returns 0x00 (0000ms, 3059ms total)
T8984 2836:628 JLINK_ReadMem (0xE0001028, 0x0004 Bytes, ...) -- CPU is running -- CPU_ReadMem(4 bytes @ 0xE0001028) -- Data:  00 00 00 00  returns 0x00 (0001ms, 3060ms total)
T8984 2836:629 JLINK_WriteMem(0xE0001028, 0x0004 Bytes, ...) -- Data:  00 01 00 00 -- CPU is running -- CPU_WriteMem(4 bytes @ 0xE0001028)  returns 0x04 (0000ms, 3060ms total)
T8984 2836:629 JLINK_ReadMem (0xE0001028, 0x0004 Bytes, ...) -- CPU is running -- CPU_ReadMem(4 bytes @ 0xE0001028) -- Data:  00 00 00 00  returns 0x00 (0000ms, 3060ms total)
T8984 2836:629 JLINK_ReadMem (0xE0001038, 0x0004 Bytes, ...) -- CPU is running -- CPU_ReadMem(4 bytes @ 0xE0001038) -- Data:  00 02 00 00  returns 0x00 (0001ms, 3061ms total)
T8984 2836:630 JLINK_WriteMem(0xE0001038, 0x0004 Bytes, ...) -- Data:  00 03 00 00 -- CPU is running -- CPU_WriteMem(4 bytes @ 0xE0001038)  returns 0x04 (0000ms, 3061ms total)
T8984 2836:630 JLINK_ReadMem (0xE0001038, 0x0004 Bytes, ...) -- CPU is running -- CPU_ReadMem(4 bytes @ 0xE0001038) -- Data:  00 03 00 00  returns 0x00 (0000ms, 3061ms total)
T8984 2836:630 JLINK_ReadMem (0xE0001048, 0x0004 Bytes, ...) -- CPU is running -- CPU_ReadMem(4 bytes @ 0xE0001048) -- Data:  00 00 00 00  returns 0x00 (0001ms, 3062ms total)
T8984 2836:631 JLINK_WriteMem(0xE0001048, 0x0004 Bytes, ...) -- Data:  00 01 00 00 -- CPU is running -- CPU_WriteMem(4 bytes @ 0xE0001048)  returns 0x04 (0000ms, 3062ms total)
T8984 2836:631 JLINK_ReadMem (0xE0001048, 0x0004 Bytes, ...) -- CPU is running -- CPU_ReadMem(4 bytes @ 0xE0001048) -- Data:  00 00 00 00  returns 0x00 (0000ms, 3062ms total)
T8984 2836:631 JLINK_ReadMem (0xE0001058, 0x0004 Bytes, ...) -- CPU is running -- CPU_ReadMem(4 bytes @ 0xE0001058) -- Data:  00 00 00 00  returns 0x00 (0001ms, 3063ms total)
T8984 2836:632 JLINK_WriteMem(0xE0001058, 0x0004 Bytes, ...) -- Data:  00 01 00 00 -- CPU is running -- CPU_WriteMem(4 bytes @ 0xE0001058)  returns 0x04 (0000ms, 3063ms total)
T8984 2836:632 JLINK_ReadMem (0xE0001058, 0x0004 Bytes, ...) -- CPU is running -- CPU_ReadMem(4 bytes @ 0xE0001058) -- Data:  00 00 00 00  returns 0x00 (0000ms, 3063ms total)
T8984 2836:632 JLINK_ReadMem (0xE0001024, 0x0004 Bytes, ...) -- CPU is running -- CPU_ReadMem(4 bytes @ 0xE0001024) -- Data:  00 00 00 00  returns 0x00 (0001ms, 3064ms total)
T8984 2836:633 JLINK_WriteMem(0xE0001024, 0x0004 Bytes, ...) -- Data:  1F 00 00 00 -- CPU is running -- CPU_WriteMem(4 bytes @ 0xE0001024)  returns 0x04 (0000ms, 3064ms total)
T8984 2836:633 JLINK_ReadMem (0xE0001024, 0x0004 Bytes, ...) -- CPU is running -- CPU_ReadMem(4 bytes @ 0xE0001024) -- Data:  0F 00 00 00  returns 0x00 (0000ms, 3064ms total)
T8984 2836:633 JLINK_ReadMem (0xE0001034, 0x0004 Bytes, ...) -- CPU is running -- CPU_ReadMem(4 bytes @ 0xE0001034) -- Data:  00 00 00 00  returns 0x00 (0001ms, 3065ms total)
T8984 2836:634 JLINK_WriteMem(0xE0001034, 0x0004 Bytes, ...) -- Data:  1F 00 00 00 -- CPU is running -- CPU_WriteMem(4 bytes @ 0xE0001034)  returns 0x04 (0000ms, 3065ms total)
T8984 2836:634 JLINK_ReadMem (0xE0001034, 0x0004 Bytes, ...) -- CPU is running -- CPU_ReadMem(4 bytes @ 0xE0001034) -- Data:  0F 00 00 00  returns 0x00 (0000ms, 3065ms total)
T8984 2836:634 JLINK_ReadMem (0xE0001044, 0x0004 Bytes, ...) -- CPU is running -- CPU_ReadMem(4 bytes @ 0xE0001044) -- Data:  00 00 00 00  returns 0x00 (0001ms, 3066ms total)
T8984 2836:635 JLINK_WriteMem(0xE0001044, 0x0004 Bytes, ...) -- Data:  1F 00 00 00 -- CPU is running -- CPU_WriteMem(4 bytes @ 0xE0001044)  returns 0x04 (0000ms, 3066ms total)
T8984 2836:635 JLINK_ReadMem (0xE0001044, 0x0004 Bytes, ...) -- CPU is running -- CPU_ReadMem(4 bytes @ 0xE0001044) -- Data:  0F 00 00 00  returns 0x00 (0000ms, 3066ms total)
T8984 2836:635 JLINK_ReadMem (0xE0001054, 0x0004 Bytes, ...) -- CPU is running -- CPU_ReadMem(4 bytes @ 0xE0001054) -- Data:  00 00 00 00  returns 0x00 (0001ms, 3067ms total)
T8984 2836:636 JLINK_WriteMem(0xE0001054, 0x0004 Bytes, ...) -- Data:  1F 00 00 00 -- CPU is running -- CPU_WriteMem(4 bytes @ 0xE0001054)  returns 0x04 (0001ms, 3068ms total)
T8984 2836:637 JLINK_ReadMem (0xE0001054, 0x0004 Bytes, ...) -- CPU is running -- CPU_ReadMem(4 bytes @ 0xE0001054) -- Data:  0F 00 00 00  returns 0x00 (0000ms, 3068ms total)
T8984 2836:637 JLINK_ReadMem (0xE0001028, 0x0004 Bytes, ...) -- CPU is running -- CPU_ReadMem(4 bytes @ 0xE0001028) -- Data:  00 00 00 00  returns 0x00 (0001ms, 3069ms total)
T8984 2836:638 JLINK_ReadMem (0xE0001038, 0x0004 Bytes, ...) -- CPU is running -- CPU_ReadMem(4 bytes @ 0xE0001038) -- Data:  00 03 00 00  returns 0x00 (0000ms, 3069ms total)
T8984 2836:638 JLINK_ReadMem (0xE0001048, 0x0004 Bytes, ...) -- CPU is running -- CPU_ReadMem(4 bytes @ 0xE0001048) -- Data:  00 00 00 00  returns 0x00 (0000ms, 3069ms total)
T8984 2836:639 JLINK_ReadMem (0xE0001058, 0x0004 Bytes, ...) -- CPU is running -- CPU_ReadMem(4 bytes @ 0xE0001058) -- Data:  00 00 00 00  returns 0x00 (0000ms, 3070ms total)
T8984 2836:639 JLINK_WriteMem(0xE0001020, 0x0004 Bytes, ...) -- Data:  00 00 00 00 -- CPU is running -- CPU_WriteMem(4 bytes @ 0xE0001020)  returns 0x04 (0000ms, 3070ms total)
T8984 2836:639 JLINK_WriteMem(0xE0001024, 0x0004 Bytes, ...) -- Data:  00 00 00 00 -- CPU is running -- CPU_WriteMem(4 bytes @ 0xE0001024)  returns 0x04 (0000ms, 3070ms total)
T8984 2836:639 JLINK_WriteMem(0xE0001028, 0x0004 Bytes, ...) -- Data:  00 00 00 00 -- CPU is running -- CPU_WriteMem(4 bytes @ 0xE0001028)  returns 0x04 (0001ms, 3071ms total)
T8984 2836:640 JLINK_WriteMem(0xE0001030, 0x0004 Bytes, ...) -- Data:  00 00 00 00 -- CPU is running -- CPU_WriteMem(4 bytes @ 0xE0001030)  returns 0x04 (0000ms, 3071ms total)
T8984 2836:640 JLINK_WriteMem(0xE0001034, 0x0004 Bytes, ...) -- Data:  00 00 00 00 -- CPU is running -- CPU_WriteMem(4 bytes @ 0xE0001034)  returns 0x04 (0000ms, 3071ms total)
T8984 2836:640 JLINK_WriteMem(0xE0001038, 0x0004 Bytes, ...) -- Data:  00 00 00 00 -- CPU is running -- CPU_WriteMem(4 bytes @ 0xE0001038)  returns 0x04 (0001ms, 3072ms total)
T8984 2836:641 JLINK_WriteMem(0xE0001040, 0x0004 Bytes, ...) -- Data:  00 00 00 00 -- CPU is running -- CPU_WriteMem(4 bytes @ 0xE0001040)  returns 0x04 (0000ms, 3072ms total)
T8984 2836:641 JLINK_WriteMem(0xE0001044, 0x0004 Bytes, ...) -- Data:  00 00 00 00 -- CPU is running -- CPU_WriteMem(4 bytes @ 0xE0001044)  returns 0x04 (0000ms, 3072ms total)
T8984 2836:641 JLINK_WriteMem(0xE0001048, 0x0004 Bytes, ...) -- Data:  00 00 00 00 -- CPU is running -- CPU_WriteMem(4 bytes @ 0xE0001048)  returns 0x04 (0001ms, 3073ms total)
T8984 2836:642 JLINK_WriteMem(0xE0001050, 0x0004 Bytes, ...) -- Data:  00 00 00 00 -- CPU is running -- CPU_WriteMem(4 bytes @ 0xE0001050)  returns 0x04 (0000ms, 3073ms total)
T8984 2836:642 JLINK_WriteMem(0xE0001054, 0x0004 Bytes, ...) -- Data:  00 00 00 00 -- CPU is running -- CPU_WriteMem(4 bytes @ 0xE0001054)  returns 0x04 (0000ms, 3073ms total)
T8984 2836:642 JLINK_WriteMem(0xE0001058, 0x0004 Bytes, ...) -- Data:  00 00 00 00 -- CPU is running -- CPU_WriteMem(4 bytes @ 0xE0001058)  returns 0x04 (0001ms, 3074ms total)
T8984 2836:643 JLINK_Halt()  returns 0x00 (0002ms, 3076ms total)
T8984 2836:646 JLINK_JTAG_GetDeviceID(DeviceIndex = 0)  returns 0x4BA00477 (0000ms, 3076ms total)
T8984 2836:646 JLINK_ReadMemU32(0x400E0940, 0x0001 Items, ...) -- CPU_ReadMem(4 bytes @ 0x400E0940) -- Data:  60 0A 5E 28  returns 0x01 (0001ms, 3077ms total)
T8984 2836:651 JLINK_ReadMemHW(0x00082900, 0x0100 Bytes, ...) -- CPU_ReadMem(256 bytes @ 0x00082900) -- Data:  44 F8 25 10 05 B0 F0 BD 01 26 AE 40 04 EB 85 00 ...  returns 0x00 (0002ms, 3079ms total)
T8984 2836:653 JLINK_ReadMemHW(0x00082D00, 0x0100 Bytes, ...) -- CPU_ReadMem(256 bytes @ 0x00082D00) -- Data:  00 00 00 00 00 00 00 00 00 00 00 00 00 00 00 00 ...  returns 0x00 (0001ms, 3080ms total)
T8984 2836:657 JLINK_BeginDownload(Flags = 0x00) (0000ms, 3080ms total)
T8984 2836:657 JLINK_WriteMem(0x00080000, 0x0100 Bytes, ...) -- Data:  D0 25 07 20 9D 12 08 00 95 12 08 00 95 12 08 00 ...  returns 0x100 (0000ms, 3080ms total)
T8984 2836:658 JLINK_WriteMem(0x00080100, 0x0100 Bytes, ...) -- Data:  04 48 AF F3 00 80 01 23 23 70 10 BD 38 04 07 20 ...  returns 0x100 (0000ms, 3081ms total)
T8984 2836:658 JLINK_WriteMem(0x00080200, 0x0100 Bytes, ...) -- Data:  0B 4B 98 47 03 46 00 2B 0C BF 00 23 01 23 DB B2 ...  returns 0x100 (0000ms, 3081ms total)
T8984 2836:658 JLINK_WriteMem(0x00080300, 0x0100 Bytes, ...) -- Data:  18 46 0D 4B 98 47 02 46 7B 68 B2 FB F3 F3 7B 61 ...  returns 0x100 (0000ms, 3081ms total)
T8984 2836:658 JLINK_WriteMem(0x00080400, 0x0100 Bytes, ...) -- Data:  80 B5 00 AF 06 20 04 4B 98 47 02 46 13 46 DB 00 ...  returns 0x100 (0000ms, 3081ms total)
T8984 2836:658 JLINK_WriteMem(0x00080500, 0x0100 Bytes, ...) -- Data:  17 4B 98 47 3B 20 4F F0 60 51 14 4B 98 47 55 20 ...  returns 0x100 (0000ms, 3081ms total)
T8984 2836:658 JLINK_WriteMem(0x00080600, 0x0100 Bytes, ...) -- Data:  03 F5 04 73 1B 68 18 46 0C 37 BD 46 5D F8 04 7B ...  returns 0x100 (0000ms, 3081ms total)
T8984 2836:658 JLINK_WriteMem(0x00080700, 0x0100 Bytes, ...) -- Data:  5A 60 FB 7B 3A 68 12 69 42 F0 00 52 79 68 5B 01 ...  returns 0x100 (0000ms, 3081ms total)
T8984 2836:658 JLINK_WriteMem(0x00080800, 0x0100 Bytes, ...) -- Data:  3B 68 9B 68 FB 60 FB 68 03 F0 80 73 00 2B 03 D0 ...  returns 0x100 (0000ms, 3081ms total)
T8984 2836:658 JLINK_WriteMem(0x00080900, 0x0100 Bytes, ...) -- Data:  FB 60 07 F1 0C 03 78 68 19 46 07 4B 98 47 97 F8 ...  returns 0x100 (0000ms, 3081ms total)
T8984 2836:658 JLINK_WriteMem(0x00080A00, 0x0100 Bytes, ...) -- Data:  0A 03 00 2B 03 D0 FB 68 BA 68 1A 62 02 E0 FB 68 ...  returns 0x100 (0000ms, 3081ms total)
T8984 2836:658 JLINK_WriteMem(0x00080B00, 0x0100 Bytes, ...) -- Data:  04 7B 70 47 80 B4 85 B0 00 AF 78 60 7B 68 5B 09 ...  returns 0x100 (0000ms, 3081ms total)
T8984 2836:658 JLINK_WriteMem(0x00080C00, 0x0100 Bytes, ...) -- Data:  80 5F 23 D0 70 E0 B3 F1 40 5F 47 D0 B3 F1 60 5F ...  returns 0x100 (0000ms, 3081ms total)
T8984 2836:658 JLINK_WriteMem(0x00080D00, 0x0100 Bytes, ...) -- Data:  D9 09 08 00 55 0A 08 00 80 B5 84 B0 00 AF 78 60 ...  returns 0x100 (0000ms, 3081ms total)
T8984 2836:658 JLINK_WriteMem(0x00080E00, 0x0100 Bytes, ...) -- Data:  80 BD 00 BF 00 14 0E 40 09 0D 08 00 80 B4 85 B0 ...  returns 0x100 (0000ms, 3081ms total)
T8984 2836:658 JLINK_WriteMem(0x00080F00, 0x0100 Bytes, ...) -- Data:  80 B4 85 B0 00 AF 78 60 00 23 FB 60 21 4B 1B 6A ...  returns 0x100 (0000ms, 3081ms total)
T8984 2836:658 JLINK_WriteMem(0x00081000, 0x0100 Bytes, ...) -- Data:  02 00 37 01 FC C0 C8 FF 01 3F 37 00 80 B4 00 AF ...  returns 0x100 (0000ms, 3081ms total)
T8984 2836:658 JLINK_WriteMem(0x00081100, 0x0100 Bytes, ...) -- Data:  18 46 0C 37 BD 46 5D F8 04 7B 70 47 80 B4 83 B0 ...  returns 0x100 (0000ms, 3081ms total)
T8984 2836:658 JLINK_WriteMem(0x00081200, 0x0100 Bytes, ...) -- Data:  18 46 14 37 BD 46 5D F8 04 7B 70 47 80 B4 85 B0 ...  returns 0x100 (0000ms, 3081ms total)
T8984 2836:658 JLINK_WriteMem(0x00081300, 0x0100 Bytes, ...) -- Data:  0D 4B 9A 42 05 D8 0B 4B 0A 4A 92 68 42 F0 00 52 ...  returns 0x100 (0000ms, 3081ms total)
T8984 2836:658 JLINK_WriteMem(0x00081400, 0x0100 Bytes, ...) -- Data:  04 D0 20 2B 08 D0 00 2B 0E D0 0E E0 27 4B 1B 68 ...  returns 0x100 (0000ms, 3081ms total)
T8984 2836:658 JLINK_WriteMem(0x00081500, 0x0100 Bytes, ...) -- Data:  9A 42 08 D8 12 4B 4F F4 00 72 1A 60 11 4B 4F F4 ...  returns 0x100 (0000ms, 3081ms total)
T8984 2836:658 JLINK_WriteMem(0x00081600, 0x0100 Bytes, ...) -- Data:  07 4B 19 68 08 68 B0 E8 F0 0F 80 F3 09 88 BF F3 ...  returns 0x100 (0000ms, 3081ms total)
T8984 2836:658 JLINK_WriteMem(0x00081700, 0x0100 Bytes, ...) -- Data:  80 B5 00 AF 07 4B 98 47 07 4B 98 47 03 46 00 2B ...  returns 0x100 (0000ms, 3081ms total)
T8984 2836:658 JLINK_WriteMem(0x00081800, 0x0100 Bytes, ...) -- Data:  3B 68 02 2B 2D D1 B8 69 B9 68 3A 68 1C 4B 98 47 ...  returns 0x100 (0001ms, 3082ms total)
T8984 2836:659 JLINK_WriteMem(0x00081900, 0x0100 Bytes, ...) -- Data:  18 46 12 4B 98 47 03 46 00 2B 0B D0 7B 68 00 2B ...  returns 0x100 (0000ms, 3082ms total)
T8984 2836:659 JLINK_WriteMem(0x00081A00, 0x0100 Bytes, ...) -- Data:  DA 60 7B 68 02 2B 08 D1 FB 68 9B 6B 00 2B 04 D0 ...  returns 0x100 (0000ms, 3082ms total)
T8984 2836:659 JLINK_WriteMem(0x00081B00, 0x0100 Bytes, ...) -- Data:  04 D0 38 4B 4F F0 FF 32 1A 60 3E E0 30 4B 1B 68 ...  returns 0x100 (0000ms, 3082ms total)
T8984 2836:659 JLINK_WriteMem(0x00081C00, 0x0100 Bytes, ...) -- Data:  5C 05 07 20 80 B5 84 B0 00 AF 34 4B 1B 68 00 2B ...  returns 0x100 (0000ms, 3082ms total)
T8984 2836:659 JLINK_WriteMem(0x00081D00, 0x0100 Bytes, ...) -- Data:  80 B5 84 B0 00 AF 78 60 7B 68 DB 68 DB 68 BB 60 ...  returns 0x100 (0000ms, 3082ms total)
T8984 2836:659 JLINK_WriteMem(0x00081E00, 0x0100 Bytes, ...) -- Data:  34 05 07 20 08 00 07 20 80 B5 84 B0 00 AF 78 60 ...  returns 0x100 (0000ms, 3082ms total)
T8984 2836:659 JLINK_WriteMem(0x00081F00, 0x0100 Bytes, ...) -- Data:  01 F0 1F 01 01 20 00 FA 01 F1 20 32 43 F8 22 10 ...  returns 0x100 (0000ms, 3082ms total)
T8984 2836:659 JLINK_WriteMem(0x00082000, 0x0100 Bytes, ...) -- Data:  05 E0 FB 79 01 33 FB 71 FB 79 07 2B DC D9 08 37 ...  returns 0x100 (0000ms, 3082ms total)
T8984 2836:659 JLINK_WriteMem(0x00082100, 0x0100 Bytes, ...) -- Data:  10 37 BD 46 80 BD 00 BF 00 40 0B 40 6D 0B 08 00 ...  returns 0x100 (0000ms, 3082ms total)
T8984 2836:659 JLINK_WriteMem(0x00082200, 0x0100 Bytes, ...) -- Data:  10 4B 08 22 9A 71 0A 48 0E 49 13 4B 98 47 0C 48 ...  returns 0x100 (0000ms, 3082ms total)
T8984 2836:659 JLINK_WriteMem(0x00082300, 0x0100 Bytes, ...) -- Data:  A1 16 08 00 80 B5 00 AF 04 48 05 4B 98 47 55 20 ...  returns 0x100 (0000ms, 3082ms total)
T8984 2836:659 JLINK_WriteMem(0x00082400, 0x0100 Bytes, ...) -- Data:  01 F1 43 F8 22 10 0C 37 BD 46 5D F8 04 7B 70 47 ...  returns 0x100 (0000ms, 3082ms total)
T8984 2836:659 JLINK_WriteMem(0x00082500, 0x0100 Bytes, ...) -- Data:  0C 4B 98 47 03 20 00 21 0B 4B 98 47 03 20 0B 4B ...  returns 0x100 (0000ms, 3082ms total)
T8984 2836:659 JLINK_WriteMem(0x00082600, 0x0100 Bytes, ...) -- Data:  25 4B 98 47 38 61 7A 69 3B 69 13 40 7B 61 7B 69 ...  returns 0x100 (0000ms, 3082ms total)
T8984 2836:659 JLINK_WriteMem(0x00082700, 0x0100 Bytes, ...) -- Data:  8C 29 08 00 94 29 08 00 8C 29 08 00 03 2A 70 B4 ...  returns 0x100 (0000ms, 3082ms total)
T8984 2836:659 JLINK_WriteMem(0x00082800, 0x0100 Bytes, ...) -- Data:  11 F8 01 3B 00 F8 01 3B 01 D3 0B 88 03 80 60 46 ...  returns 0x100 (0000ms, 3082ms total)
T8984 2836:659 JLINK_WriteMem(0x00082900, 0x0100 Bytes, ...) -- Data:  88 01 C4 F8 8C 01 3F B9 6B 1C 00 20 02 35 63 60 ...  returns 0x100 (0000ms, 3082ms total)
T8984 2836:659 JLINK_WriteMem(0x00082A00, 0x0100 Bytes, ...) -- Data:  00 00 00 00 00 00 00 00 00 00 00 00 00 00 00 00 ...  returns 0x100 (0000ms, 3082ms total)
T8984 2836:659 JLINK_WriteMem(0x00082B00, 0x0100 Bytes, ...) -- Data:  00 00 00 00 00 00 00 00 00 00 00 00 00 00 00 00 ...  returns 0x100 (0000ms, 3082ms total)
T8984 2836:659 JLINK_WriteMem(0x00082C00, 0x0100 Bytes, ...) -- Data:  00 00 00 00 00 00 00 00 00 00 00 00 00 00 00 00 ...  returns 0x100 (0000ms, 3082ms total)
T8984 2836:659 JLINK_WriteMem(0x00082D00, 0x0100 Bytes, ...) -- Data:  00 00 00 00 00 00 00 00 00 00 00 00 00 00 00 00 ...  returns 0x100 (0000ms, 3082ms total)
T8AB4 2836:763 JLINK_IsHalted()  returns TRUE (0000ms, 3082ms total)
T8AB4 2836:763 JLINK_GetMOEs(...) -- CPU_ReadMem(4 bytes @ 0xE000ED30) -- CPU_WriteMem(4 bytes @ 0xE000ED30)  returns 0x01 (0001ms, 3083ms total)
T8AB4 2836:764 JLINK_ReadReg(R15 (PC)) -- -------------------------------------- -- Start of determining dirty areas -- End of determining dirty areas -- Start of preparing flash programming -- Calculating RAM usage -- RAM usage = 2860 Bytes -- Preserving registers -- Preparing memory -- Determining CPU clock frequency -- CPU clock frequency: 83996 kHz -- CPU frequency = 83996 kHz -- Preparing target -- Downloading RAMCode -- Using alternate TurboMode RAMCode -- Checking target RAM -- Preparing RAMCode
 -- End of preparing flash programming -- CPU is running at 83996 kHz. -- Start of comparing flash -- CRC check was estimated as fastest method -- Comparing range 0x80000 - 0x82DFF (46 Sectors, 11 KB), using multi-block CRC calculation -- CRC does not match for sectors 0-1, 19, 26, 28, 34-42 -- Comparing range 0x80200 - 0x812FF (17 Sectors, 4 KB), using alternative multi-block CRC calculation -- All CRCs match
 -- Comparing range 0x81400 - 0x819FF (6 Sectors, 1 KB), using alternative multi-block CRC calculation -- All CRCs match -- Comparing range 0x81B00 - 0x81BFF (1 Sector, 256 Bytes), using alternative multi-block CRC calculation -- All CRCs match -- Comparing range 0x81D00 - 0x821FF (5 Sectors, 1 KB), using alternative multi-block CRC calculation -- All CRCs match -- Comparing range 0x82B00 - 0x82DFF (3 Sectors, 768 Bytes), using alternative multi-block CRC calculation -- All CRCs match
 -- End of comparing flash -- Start of erasing sectors -- Erasing range 0x00080000 - 0x000801FF (  2 Sectors, 512 Bytes) -- Erasing range 0x00081300 - 0x000813FF (  1 Sector, 256 Bytes) -- Erasing range 0x00081A00 - 0x00081AFF (  1 Sector, 256 Bytes) -- Erasing range 0x00081C00 - 0x00081CFF (  1 Sector, 256 Bytes) -- Erasing range 0x00082200 - 0x00082AFF (  9 Sectors, 2 KB) -- End of erasing sectors -- Start of flash programming -- Programming range 0x00080000 - 0x000801FF (  2 Sectors, 512 Bytes)
 -- Programming range 0x00081300 - 0x000813FF (  1 Sector, 256 Bytes) -- Programming range 0x00081A00 - 0x00081AFF (  1 Sector, 256 Bytes) -- Programming range 0x00081C00 - 0x00081CFF (  1 Sector, 256 Bytes) -- Programming range 0x00082200 - 0x00082AFF (  9 Sectors, 2 KB) -- End of flash programming -- Flash programming performed for 5 ranges (3584 bytes) -- 0x80000 - 0x801FF (002 Sectors, 512 Bytes) -- 0x81300 - 0x813FF (001 Sector, 256 Bytes) -- 0x81A00 - 0x81AFF (001 Sector, 256 Bytes)
 -- 0x81C00 - 0x81CFF (001 Sector, 256 Bytes) -- 0x82200 - 0x82AFF (009 Sectors, 2 KB) -- Start of verifying flash -- Checksum calculation was estimated as fastest method -- Checksum calculation was estimated as fastest method -- Checksum calculation was estimated as fastest method -- Checksum calculation was estimated as fastest method -- Checksum calculation was estimated as fastest method -- End of verifying flash -- Start of restoring -- Restore RAMCode -- Restore content of target memory
 -- Restore target -- Restore memory -- Restore content of registers -- End of restoring -- Total time needed: 0.141s (Prepare: 0.056s, Compare: 0.018s, Erase: 0.000s, Program: 0.057s, Verify: 0.004s, Restore: 0.004s)  returns 0x000825C4 (0143ms, 3226ms total)
T8984 2836:907 JLINK_WriteMem(0x400E0A04, 0x0004 Bytes, ...) -- Data:  0B 01 00 5A -- CPU_WriteMem(4 bytes @ 0x400E0A04)  returns 0x04 (0000ms, 3226ms total)
T8984 2836:907 JLINK_ReadMem (0x400E0A08, 0x0004 Bytes, ...) -- CPU_ReadMem(4 bytes @ 0x400E0A08) -- Data:  01 00 00 00  returns 0x00 (0001ms, 3227ms total)
T8984 2836:908 JLINK_WriteMem(0x400E0A04, 0x0004 Bytes, ...) -- Data:  0C 02 00 5A -- CPU_WriteMem(4 bytes @ 0x400E0A04)  returns 0x04 (0000ms, 3227ms total)
T8984 2836:908 JLINK_ReadMem (0x400E0A08, 0x0004 Bytes, ...) -- CPU_ReadMem(4 bytes @ 0x400E0A08) -- Data:  01 00 00 00  returns 0x00 (0001ms, 3228ms total)
T8984 2836:909 JLINK_EndDownload()  returns 0x00 (0000ms, 3228ms total)
T8984 2836:909 JLINK_JTAG_GetDeviceID(DeviceIndex = 0)  returns 0x4BA00477 (0000ms, 3228ms total)
T8984 2836:909 JLINK_ReadMemU32(0x400E0940, 0x0001 Items, ...) -- CPU_ReadMem(4 bytes @ 0x400E0940) -- Data:  60 0A 5E 28  returns 0x01 (0000ms, 3228ms total)
T8AB4 2836:927 JLINK_IsHalted()  returns TRUE (0000ms, 3228ms total)
T4DDC 2836:978 JLINK_Halt()  returns 0x00 (0000ms, 3228ms total)
T4DDC 2836:978 JLINK_ReadReg(R15 (PC))  returns 0x000825C4 (0000ms, 3228ms total)
T4DDC 2836:978 JLINK_ReadReg(R13 (SP))  returns 0x200725B0 (0000ms, 3228ms total)
T4DDC 2836:980 JLINK_ReadReg(R0)  returns 0x00000000 (0000ms, 3228ms total)
T4DDC 2836:980 JLINK_ReadReg(R1)  returns 0x00010000 (0000ms, 3228ms total)
T4DDC 2836:980 JLINK_ReadReg(R2)  returns 0x00000004 (0000ms, 3228ms total)
T4DDC 2836:980 JLINK_ReadReg(R3)  returns 0x00000000 (0000ms, 3228ms total)
T4DDC 2836:980 JLINK_ReadReg(R4)  returns 0x400E1A30 (0000ms, 3228ms total)
T4DDC 2836:980 JLINK_ReadReg(R5)  returns 0x400E1A30 (0000ms, 3228ms total)
T4DDC 2836:981 JLINK_ReadReg(R6)  returns 0x00000000 (0000ms, 3228ms total)
T4DDC 2836:981 JLINK_ReadReg(R7)  returns 0x200725B0 (0000ms, 3228ms total)
T4DDC 2836:981 JLINK_ReadReg(R8)  returns 0x0C9A429F (0000ms, 3228ms total)
T4DDC 2836:981 JLINK_ReadReg(R9)  returns 0x00307E05 (0000ms, 3228ms total)
T4DDC 2836:981 JLINK_ReadReg(R10)  returns 0x6609EB01 (0000ms, 3228ms total)
T4DDC 2836:981 JLINK_ReadReg(R11)  returns 0x29430024 (0000ms, 3228ms total)
T4DDC 2836:981 JLINK_ReadReg(R12)  returns 0xA3FCDF76 (0000ms, 3228ms total)
T4DDC 2836:981 JLINK_ReadReg(R13 (SP))  returns 0x200725B0 (0000ms, 3228ms total)
T4DDC 2836:981 JLINK_ReadReg(R14)  returns 0x0008114D (0000ms, 3228ms total)
T4DDC 2836:981 JLINK_ReadReg(R15 (PC))  returns 0x000825C4 (0000ms, 3228ms total)
T4DDC 2836:981 JLINK_ReadReg(XPSR)  returns 0x01000000 (0000ms, 3228ms total)
T4DDC 2836:981 JLINK_ReadReg(MSP)  returns 0x200725B0 (0000ms, 3228ms total)
T4DDC 2836:981 JLINK_ReadReg(PSP)  returns 0x09248840 (0000ms, 3228ms total)
T4DDC 2836:981 JLINK_ReadReg(APSR)  returns 0x00000000 (0000ms, 3228ms total)
T4DDC 2836:981 JLINK_ReadReg(EPSR)  returns 0x01000000 (0000ms, 3228ms total)
T4DDC 2836:981 JLINK_ReadReg(IPSR)  returns 0x00000000 (0000ms, 3228ms total)
T4DDC 2836:981 JLINK_ReadReg(PRIMASK)  returns 0x00000000 (0000ms, 3228ms total)
T4DDC 2836:981 JLINK_ReadReg(BASEPRI)  returns 0x0000A000 (0000ms, 3228ms total)
T4DDC 2836:981 JLINK_ReadReg(FAULTMASK)  returns 0x00000000 (0000ms, 3228ms total)
T4DDC 2836:981 JLINK_ReadReg(CONTROL)  returns 0x00000000 (0000ms, 3228ms total)
T4DDC 2837:029 JLINK_ReadReg(R0)  returns 0x00000000 (0000ms, 3228ms total)
T4DDC 2837:029 JLINK_ReadReg(R1)  returns 0x00010000 (0000ms, 3228ms total)
T4DDC 2837:029 JLINK_ReadReg(R2)  returns 0x00000004 (0000ms, 3228ms total)
T4DDC 2837:029 JLINK_ReadReg(R3)  returns 0x00000000 (0000ms, 3228ms total)
T4DDC 2837:029 JLINK_ReadReg(R4)  returns 0x400E1A30 (0000ms, 3228ms total)
T4DDC 2837:029 JLINK_ReadReg(R5)  returns 0x400E1A30 (0000ms, 3228ms total)
T4DDC 2837:029 JLINK_ReadReg(R6)  returns 0x00000000 (0000ms, 3228ms total)
T4DDC 2837:029 JLINK_ReadReg(R7)  returns 0x200725B0 (0000ms, 3228ms total)
T4DDC 2837:029 JLINK_ReadReg(R8)  returns 0x0C9A429F (0000ms, 3228ms total)
T4DDC 2837:029 JLINK_ReadReg(R9)  returns 0x00307E05 (0000ms, 3228ms total)
T4DDC 2837:029 JLINK_ReadReg(R10)  returns 0x6609EB01 (0000ms, 3228ms total)
T4DDC 2837:029 JLINK_ReadReg(R11)  returns 0x29430024 (0000ms, 3228ms total)
T4DDC 2837:029 JLINK_ReadReg(R12)  returns 0xA3FCDF76 (0000ms, 3228ms total)
T4DDC 2837:029 JLINK_ReadReg(R13 (SP))  returns 0x200725B0 (0000ms, 3228ms total)
T4DDC 2837:029 JLINK_ReadReg(R14)  returns 0x0008114D (0000ms, 3228ms total)
T4DDC 2837:029 JLINK_ReadReg(R15 (PC))  returns 0x000825C4 (0000ms, 3228ms total)
T4DDC 2837:029 JLINK_ReadReg(XPSR)  returns 0x01000000 (0000ms, 3228ms total)
T4DDC 2837:029 JLINK_ReadReg(MSP)  returns 0x200725B0 (0000ms, 3228ms total)
T4DDC 2837:029 JLINK_ReadReg(PSP)  returns 0x09248840 (0000ms, 3228ms total)
T4DDC 2837:029 JLINK_ReadReg(APSR)  returns 0x00000000 (0000ms, 3228ms total)
T4DDC 2837:029 JLINK_ReadReg(EPSR)  returns 0x01000000 (0000ms, 3228ms total)
T4DDC 2837:029 JLINK_ReadReg(IPSR)  returns 0x00000000 (0000ms, 3228ms total)
T4DDC 2837:029 JLINK_ReadReg(PRIMASK)  returns 0x00000000 (0000ms, 3228ms total)
T4DDC 2837:029 JLINK_ReadReg(BASEPRI)  returns 0x0000A000 (0000ms, 3228ms total)
T4DDC 2837:029 JLINK_ReadReg(FAULTMASK)  returns 0x00000000 (0000ms, 3228ms total)
T4DDC 2837:029 JLINK_ReadReg(CONTROL)  returns 0x00000000 (0000ms, 3228ms total)
T4DDC 2837:063 JLINK_ReadReg(R15 (PC))  returns 0x000825C4 (0000ms, 3228ms total)
T4DDC 2837:063 JLINK_Reset() -- CPU_ReadMem(16 bytes @ 0x20000000) -- CPU_WriteMem(16 bytes @ 0x20000000) -- CPU_ReadMem(4 bytes @ 0xE000EDFC) -- CPU_WriteMem(4 bytes @ 0xE000EDFC) -- CPU_WriteMem(4 bytes @ 0xE000ED0C) -- CPU_ReadMem(4 bytes @ 0xE000EDF0) -- CPU_ReadMem(4 bytes @ 0xE000EDF0) -- CPU_WriteMem(4 bytes @ 0xE000EDFC) -- CPU_WriteMem(16 bytes @ 0x20000000) -- CPU_WriteMem(4 bytes @ 0xE0002000) -- CPU_ReadMem(4 bytes @ 0xE000EDFC) -- CPU_ReadMem(4 bytes @ 0xE0001000) (0021ms, 3249ms total)
T8AB4 2837:084 JLINK_IsHalted()  returns TRUE (0000ms, 3249ms total)
T8AB4 2837:084 JLINK_GetMOEs(...) -- CPU_ReadMem(4 bytes @ 0xE000ED30) -- CPU_WriteMem(4 bytes @ 0xE000ED30)  returns 0x01 (0001ms, 3250ms total)
T8AB4 2837:085 JLINK_ReadReg(R15 (PC))  returns 0x0008129C (0000ms, 3250ms total)
T4DDC 2837:094 JLINK_ReadReg(R15 (PC))  returns 0x0008129C (0000ms, 3250ms total)
T4DDC 2837:094 JLINK_ReadReg(R13 (SP))  returns 0x200725D0 (0000ms, 3250ms total)
T8984 2837:185 JLINK_GetNumBPUnits(Type = 0xFFFFFF02)  returns 0x06 (0000ms, 3250ms total)
T8984 2837:185 JLINK_SetBPEx(Addr = 0x000804A4, Type = 0xFFFFFFF2)  returns 0x00000001 (0000ms, 3250ms total)
T8984 2837:185 JLINK_GetBPInfo(BPHandle = 1)  returns 0x00 (0000ms, 3250ms total)
T8984 2837:212 JLINK_SetBPEx(Addr = 0x00081F26, Type = 0xFFFFFFF2)  returns 0x00000002 (0000ms, 3250ms total)
T8984 2837:212 JLINK_GetBPInfo(BPHandle = 2)  returns 0x00 (0000ms, 3250ms total)
T8984 2837:223 JLINK_SetBPEx(Addr = 0x00081FB2, Type = 0xFFFFFFF2)  returns 0x00000003 (0000ms, 3250ms total)
T8984 2837:223 JLINK_GetBPInfo(BPHandle = 3)  returns 0x00 (0000ms, 3250ms total)
T8984 2837:234 JLINK_SetBPEx(Addr = 0x00082076, Type = 0xFFFFFFF2)  returns 0x00000004 (0000ms, 3250ms total)
T8984 2837:234 JLINK_GetBPInfo(BPHandle = 4)  returns 0x00 (0000ms, 3250ms total)
T8984 2837:245 JLINK_SetBPEx(Addr = 0x00081FF8, Type = 0xFFFFFFF2)  returns 0x00000005 (0000ms, 3250ms total)
T8984 2837:245 JLINK_GetBPInfo(BPHandle = 5)  returns 0x00 (0000ms, 3250ms total)
T8984 2837:256 JLINK_SetBPEx(Addr = 0x00081F6C, Type = 0xF2)  returns 0x00000006 (0000ms, 3250ms total)
T8984 2837:256 JLINK_GetBPInfo(BPHandle = 6)  returns 0x80000000 (0000ms, 3250ms total)
T8984 2837:268 JLINK_SetBPEx(Addr = 0x00082568, Type = 0xF2)  returns 0x00000007 (0000ms, 3250ms total)
T8984 2837:268 JLINK_GetBPInfo(BPHandle = 7)  returns 0x80000000 (0000ms, 3250ms total)
T8984 2837:278 JLINK_SetBPEx(Addr = 0x00082552, Type = 0xF2)  returns 0x00000008 (0000ms, 3250ms total)
T8984 2837:278 JLINK_GetBPInfo(BPHandle = 8)  returns 0x80000000 (0000ms, 3250ms total)
T8AB4 2837:286 JLINK_IsHalted()  returns TRUE (0000ms, 3250ms total)
T4DDC 2837:288 JLINK_ReadReg(R15 (PC))  returns 0x0008129C (0001ms, 3251ms total)
T4DDC 2837:289 JLINK_SetBPEx(Addr = 0x000822B0, Type = 0xFFFFFF02)  returns 0x00000009 (0000ms, 3251ms total)
T4DDC 2837:289 JLINK_GetBPInfo(BPHandle = 9)  returns 0x00 (0000ms, 3251ms total)
T4DDC 2837:289 JLINK_Go() -- Read from flash cache (2 bytes @ 0x0008129C) -- CPU_WriteMem(8 bytes @ 0x200025C8) -- Simulated -- Read from flash cache (2 bytes @ 0x0008129E) -- Simulated -- Read from flash cache (2 bytes @ 0x000812A0) -- Simulated -- Read from flash cache (2 bytes @ 0x000812A2) -- Read from flash cache (4 bytes @ 0x0008131C) -- Simulated -- Read from flash cache (2 bytes @ 0x000812A4) -- CPU_WriteMem(4 bytes @ 0x200025C4) -- Simulated -- Read from flash cache (2 bytes @ 0x000812A6)
 -- Read from flash cache (4 bytes @ 0x00081320) -- Simulated -- Read from flash cache (2 bytes @ 0x000812A8) -- CPU_WriteMem(4 bytes @ 0x200025C0) -- Simulated -- Read from flash cache (2 bytes @ 0x000812AA) -- CPU_ReadMem(64 bytes @ 0x200025C0) -- Updating C cache (64 bytes @ 0x200025C0) -- Read from C cache (4 bytes @ 0x200025C4) -- Simulated -- Read from flash cache (2 bytes @ 0x000812AC) -- Read from C cache (4 bytes @ 0x200025C0) -- Simulated -- Read from flash cache (2 bytes @ 0x000812AE)
 -- Simulated -- Read from flash cache (256 bytes @ 0x00081F00) -- Programming range 0x00081F00 - 0x00081FFF (  1 Sector, 256 Bytes) -- Calculating RAM usage -- RAM usage = 5932 Bytes -- Preserving registers -- Preparing memory -- Determining CPU clock frequency -- CPU clock frequency: 3708 kHz -- CPU frequency = 3708 kHz -- Preparing target -- Preserving target memory used for RAMCode and buffer -- Downloading RAMCode -- Preparing RAMCode -- Read from flash cache (256 bytes @ 0x00082500)
 -- Programming range 0x00082500 - 0x000825FF (  1 Sector, 256 Bytes) -- Restore RAMCode -- Restore content of target memory -- Restore target -- Restore memory -- Restore content of registers -- CPU_WriteMem(4 bytes @ 0xE0002008) -- CPU_WriteMem(4 bytes @ 0xE000200C) -- CPU_WriteMem(4 bytes @ 0xE0002010) -- CPU_WriteMem(4 bytes @ 0xE0002014) -- CPU_WriteMem(4 bytes @ 0xE0002018) -- CPU_WriteMem(4 bytes @ 0xE000201C) (0158ms, 3409ms total)
T8AB4 2837:447 JLINK_IsHalted()  returns FALSE (0000ms, 3409ms total)
T8AB4 2837:467 JLINK_IsHalted()  returns TRUE (0002ms, 3411ms total)
T8AB4 2837:469 JLINK_GetMOEs(...) -- CPU_ReadMem(4 bytes @ 0xE000ED30) -- CPU_WriteMem(4 bytes @ 0xE000ED30)  returns 0x01 (0001ms, 3410ms total)
T8AB4 2837:470 JLINK_ReadReg(R15 (PC))  returns 0x000822B0 (0000ms, 3410ms total)
T8AB4 2837:470 JLINK_GetBPInfo(BPHandle = 9)  returns 0x00 (0000ms, 3410ms total)
T8AB4 2837:470 JLINK_ClrBPEx(BPHandle = 0x00000009)  returns 0x00 (0000ms, 3410ms total)
T4DDC 2837:477 JLINK_ReadReg(R15 (PC))  returns 0x000822B0 (0000ms, 3410ms total)
T4DDC 2837:477 JLINK_ReadReg(R13 (SP))  returns 0x200725C0 (0000ms, 3410ms total)
T4DDC 2837:488 JLINK_ReadReg(R15 (PC))  returns 0x000822B0 (0000ms, 3410ms total)
T4DDC 2837:488 JLINK_Go() -- CPU_WriteMem(4 bytes @ 0xE000201C) (0001ms, 3411ms total)
T8AB4 2837:489 JLINK_IsHalted()  returns FALSE (0001ms, 3412ms total)
T8AB4 2837:501 JLINK_IsHalted()  returns FALSE (0000ms, 3411ms total)
T8AB4 2837:541 JLINK_IsHalted()  returns TRUE (0002ms, 3413ms total)
T8AB4 2837:543 JLINK_GetMOEs(...) -- CPU_ReadMem(4 bytes @ 0xE000ED30) -- CPU_WriteMem(4 bytes @ 0xE000ED30)  returns 0x01 (0001ms, 3412ms total)
T8AB4 2837:544 JLINK_ReadReg(R15 (PC))  returns 0x000804A4 (0000ms, 3412ms total)
T4DDC 2837:550 JLINK_ReadReg(R15 (PC))  returns 0x000804A4 (0000ms, 3412ms total)
T4DDC 2837:550 JLINK_ReadReg(R13 (SP))  returns 0x200725A8 (0000ms, 3412ms total)
T4DDC 2837:550 JLINK_ReadReg(R0)  returns 0x00000000 (0000ms, 3412ms total)
T4DDC 2837:550 JLINK_ReadReg(R1)  returns 0x0008135C (0000ms, 3412ms total)
T4DDC 2837:550 JLINK_ReadReg(R2)  returns 0x00008000 (0001ms, 3413ms total)
T4DDC 2837:551 JLINK_ReadReg(R3)  returns 0x400E1A50 (0000ms, 3413ms total)
T4DDC 2837:551 JLINK_ReadReg(R4)  returns 0x400E1A30 (0000ms, 3413ms total)
T4DDC 2837:551 JLINK_ReadReg(R5)  returns 0x400E1A30 (0000ms, 3413ms total)
T4DDC 2837:551 JLINK_ReadReg(R6)  returns 0x00000000 (0000ms, 3413ms total)
T4DDC 2837:551 JLINK_ReadReg(R7)  returns 0x200725A8 (0000ms, 3413ms total)
T4DDC 2837:551 JLINK_ReadReg(R8)  returns 0x0C9A429F (0000ms, 3413ms total)
T4DDC 2837:551 JLINK_ReadReg(R9)  returns 0x00307E05 (0000ms, 3413ms total)
T4DDC 2837:551 JLINK_ReadReg(R10)  returns 0x6609EB01 (0000ms, 3413ms total)
T4DDC 2837:551 JLINK_ReadReg(R11)  returns 0x29430024 (0000ms, 3413ms total)
T4DDC 2837:551 JLINK_ReadReg(R12)  returns 0xA3FCDF76 (0000ms, 3413ms total)
T4DDC 2837:551 JLINK_ReadReg(R13 (SP))  returns 0x200725A8 (0000ms, 3413ms total)
T4DDC 2837:551 JLINK_ReadReg(R14)  returns 0x000822DB (0000ms, 3413ms total)
T4DDC 2837:551 JLINK_ReadReg(R15 (PC))  returns 0x000804A4 (0000ms, 3413ms total)
T4DDC 2837:551 JLINK_ReadReg(XPSR)  returns 0x01000000 (0000ms, 3413ms total)
T4DDC 2837:551 JLINK_ReadReg(MSP)  returns 0x200725A8 (0000ms, 3413ms total)
T4DDC 2837:551 JLINK_ReadReg(PSP)  returns 0x09248840 (0000ms, 3413ms total)
T4DDC 2837:551 JLINK_ReadReg(APSR)  returns 0x00000000 (0000ms, 3413ms total)
T4DDC 2837:551 JLINK_ReadReg(EPSR)  returns 0x01000000 (0000ms, 3413ms total)
T4DDC 2837:551 JLINK_ReadReg(IPSR)  returns 0x00000000 (0000ms, 3413ms total)
T4DDC 2837:551 JLINK_ReadReg(PRIMASK)  returns 0x00000000 (0000ms, 3413ms total)
T4DDC 2837:551 JLINK_ReadReg(BASEPRI)  returns 0x00000000 (0000ms, 3413ms total)
T4DDC 2837:551 JLINK_ReadReg(FAULTMASK)  returns 0x00000000 (0000ms, 3413ms total)
T4DDC 2837:551 JLINK_ReadReg(CONTROL)  returns 0x00000000 (0000ms, 3413ms total)
T4DDC 2837:582 JLINK_ReadMem (0x200025AC, 0x0004 Bytes, ...) -- CPU_ReadMem(64 bytes @ 0x20002580) -- Updating C cache (64 bytes @ 0x20002580) -- Read from C cache (4 bytes @ 0x200025AC) -- Data:  DB 22 08 00  returns 0x00 (0001ms, 3414ms total)
T4DDC 2837:583 JLINK_ReadMem (0x200025AC, 0x0004 Bytes, ...) -- Read from C cache (4 bytes @ 0x200025AC) -- Data:  DB 22 08 00  returns 0x00 (0000ms, 3414ms total)
T4DDC 2837:584 JLINK_ReadMem (0x200025A8, 0x0004 Bytes, ...) -- Read from C cache (4 bytes @ 0x200025A8) -- Data:  B0 25 07 20  returns 0x00 (0000ms, 3414ms total)
T4DDC 2837:584 JLINK_ReadMem (0x200025B4, 0x0004 Bytes, ...) -- Read from C cache (4 bytes @ 0x200025B4) -- Data:  B9 22 08 00  returns 0x00 (0000ms, 3414ms total)
T4DDC 2837:584 JLINK_ReadMem (0x200025B4, 0x0004 Bytes, ...) -- Read from C cache (4 bytes @ 0x200025B4) -- Data:  B9 22 08 00  returns 0x00 (0000ms, 3414ms total)
T4DDC 2837:585 JLINK_ReadMem (0x200025AC, 0x0004 Bytes, ...) -- Read from C cache (4 bytes @ 0x200025AC) -- Data:  DB 22 08 00  returns 0x00 (0000ms, 3414ms total)
T4DDC 2837:585 JLINK_ReadMem (0x200025B4, 0x0004 Bytes, ...) -- Read from C cache (4 bytes @ 0x200025B4) -- Data:  B9 22 08 00  returns 0x00 (0000ms, 3414ms total)
T4DDC 2837:585 JLINK_ReadMem (0x200025B0, 0x0004 Bytes, ...) -- Read from C cache (4 bytes @ 0x200025B0) -- Data:  B8 25 07 20  returns 0x00 (0000ms, 3414ms total)
